Circuit: * C:\Users\ammit\Desktop\Pen\ISEL\ISEL\2223\LEIC\s1\E\Trab2\T2_Eletronica\VGS_VDS.asc

Direct Newton iteration for .op point succeeded.
Semiconductor Device Operating Points:
                        --- MOSFET Transistors ---
Name:        m:mp7:p     m:mp6:p     m:mn7:n     m:mn6:n    m:mpf1:p
Model:      mp7:p_1u    mp6:p_1u    mn7:n_1u    mn6:n_1u    mpf1:p_1u
Id:         -5.01e-12    5.47e-12   -3.17e-11    1.12e-11   -1.05e-11
Vgs:        -1.53e-08    5.00e+00    5.00e+00   -1.53e-08   -8.60e-09
Vds:        -7.11e-09    5.00e+00   -7.11e-09    5.00e+00   -5.00e+00
Vbs:         5.00e+00    5.00e+00   -1.77e-08   -1.77e-08    0.00e+00
Vth:        -1.48e+00   -8.92e-01    8.22e-01    8.22e-01   -8.92e-01
Vdsat:      -4.92e-02   -4.93e-02    1.35e+00    4.82e-02   -4.93e-02
Gm:          5.06e-24    8.71e-12    5.26e-12    2.23e-11    8.71e-12
Gds:         3.72e-17    1.69e-14    4.46e-03    5.68e-14    1.69e-14
Gmb:         3.62e-25    3.07e-12    1.96e-12    7.19e-12    3.07e-12
Cbd:         0.00e+00    0.00e+00    0.00e+00    0.00e+00    0.00e+00
Cbs:         0.00e+00    0.00e+00    0.00e+00    0.00e+00    0.00e+00
Cgsov:       6.00e-15    6.00e-15    2.00e-15    2.00e-15    6.00e-15
Cgdov:       6.00e-15    6.00e-15    2.00e-15    2.00e-15    6.00e-15
Cgbov:       8.00e-17    8.00e-17    8.00e-17    8.00e-17    8.00e-17
Cgs:         2.07e-14    0.00e+00    6.91e-15    0.00e+00    2.76e-14
Cgd:         2.07e-14    2.76e-14    6.91e-15    0.00e+00    0.00e+00
Cgb:         0.00e+00    0.00e+00    0.00e+00    1.38e-14    0.00e+00

Name:       m:mnf1:n     m:mpe:p     m:mne:n    m:mpen2:p   m:mnen2:n
Model:      mnf1:n_1u   mpe:p_1u    mne:n_1u   mpen2:p_1u  mnen2:n_1u
Id:          4.72e-11   -1.05e-11    1.05e-11   -1.05e-11    1.05e-11
Vgs:         5.00e+00    0.00e+00    5.00e+00    0.00e+00    5.00e+00
Vds:         1.06e-08   -5.00e+00    2.35e-09   -5.00e+00    2.35e-09
Vbs:         0.00e+00    0.00e+00    0.00e+00    0.00e+00    0.00e+00
Vth:         8.22e-01   -8.92e-01    8.22e-01   -8.92e-01    8.22e-01
Vdsat:       1.35e+00   -4.93e-02    1.35e+00   -4.93e-02    1.35e+00
Gm:          7.83e-12    8.71e-12    1.74e-12    8.71e-12    1.74e-12
Gds:         4.46e-03    1.69e-14    4.46e-03    1.69e-14    4.46e-03
Gmb:         2.92e-12    3.07e-12    6.47e-13    3.07e-12    6.47e-13
Cbd:         0.00e+00    0.00e+00    0.00e+00    0.00e+00    0.00e+00
Cbs:         0.00e+00    0.00e+00    0.00e+00    0.00e+00    0.00e+00
Cgsov:       2.00e-15    6.00e-15    2.00e-15    6.00e-15    2.00e-15
Cgdov:       2.00e-15    6.00e-15    2.00e-15    6.00e-15    2.00e-15
Cgbov:       8.00e-17    8.00e-17    8.00e-17    8.00e-17    8.00e-17
Cgs:         6.91e-15    2.76e-14    6.91e-15    2.76e-14    6.91e-15
Cgd:         6.91e-15    0.00e+00    6.91e-15    0.00e+00    6.91e-15
Cgb:         0.00e+00    0.00e+00    0.00e+00    0.00e+00    0.00e+00

Name:       m:mpen1:p   m:mnen1:n    m:mn9:p     m:mp9:n     m:mn8:p
Model:     mpen1:p_1u  mnen1:n_1u   mn9:p_1u    mp9:n_1u    mn8:p_1u
Id:         -1.05e-11    1.05e-11   -5.01e-12   -5.01e-12    5.01e-12
Vgs:         0.00e+00    5.00e+00   -1.65e-08    5.00e+00   -5.00e+00
Vds:        -5.00e+00    2.35e-09   -1.12e-09   -1.12e-09    1.14e-09
Vbs:         0.00e+00    0.00e+00    5.00e+00   -1.88e-08    9.73e-09
Vth:        -8.92e-01    8.22e-01   -1.48e+00    8.22e-01   -8.92e-01
Vdsat:      -4.93e-02    1.35e+00   -4.92e-02    1.35e+00   -1.61e+00
Gm:          8.71e-12    1.74e-12    7.99e-25    8.31e-13    8.49e-13
Gds:         1.69e-14    4.46e-03    3.72e-17    4.46e-03    4.41e-03
Gmb:         3.07e-12    6.47e-13    5.72e-26    3.09e-13    3.37e-13
Cbd:         0.00e+00    0.00e+00    0.00e+00    0.00e+00    0.00e+00
Cbs:         0.00e+00    0.00e+00    0.00e+00    0.00e+00    0.00e+00
Cgsov:       6.00e-15    2.00e-15    6.00e-15    2.00e-15    6.00e-15
Cgdov:       6.00e-15    2.00e-15    6.00e-15    2.00e-15    6.00e-15
Cgbov:       8.00e-17    8.00e-17    8.00e-17    8.00e-17    8.00e-17
Cgs:         2.76e-14    6.91e-15    2.07e-14    6.91e-15    2.07e-14
Cgd:         0.00e+00    6.91e-15    2.07e-14    6.91e-15    2.07e-14
Cgb:         0.00e+00    0.00e+00    0.00e+00    0.00e+00    0.00e+00

Name:        m:mp8:n     m:mpa:p     m:mna:n     m:mpb:p     m:mnb:n
Model:      mp8:n_1u    mpa:p_1u    mna:n_1u    mpb:p_1u    mnb:n_1u
Id:          5.01e-12   -1.12e-11    1.12e-11   -1.05e-11    1.05e-11
Vgs:         9.73e-09   -5.00e+00    0.00e+00    0.00e+00    5.00e+00
Vds:         1.14e-09   -2.54e-09    5.00e+00   -5.00e+00    2.35e-09
Vbs:        -5.00e+00    0.00e+00    0.00e+00    0.00e+00    0.00e+00
Vth:         1.45e+00   -8.92e-01    8.22e-01   -8.92e-01    8.22e-01
Vdsat:       4.80e-02   -1.61e+00    4.82e-02   -4.93e-02    1.35e+00
Gm:          1.38e-24    1.90e-12    2.23e-11    8.71e-12    1.74e-12
Gds:         6.32e-17    4.41e-03    5.68e-14    1.69e-14    4.46e-03
Gmb:         1.21e-25    7.55e-13    7.19e-12    3.07e-12    6.47e-13
Cbd:         0.00e+00    0.00e+00    0.00e+00    0.00e+00    0.00e+00
Cbs:         0.00e+00    0.00e+00    0.00e+00    0.00e+00    0.00e+00
Cgsov:       2.00e-15    6.00e-15    2.00e-15    6.00e-15    2.00e-15
Cgdov:       2.00e-15    6.00e-15    2.00e-15    6.00e-15    2.00e-15
Cgbov:       8.00e-17    8.00e-17    8.00e-17    8.00e-17    8.00e-17
Cgs:         0.00e+00    2.07e-14    0.00e+00    2.76e-14    6.91e-15
Cgd:         0.00e+00    2.07e-14    0.00e+00    0.00e+00    6.91e-15
Cgb:         1.38e-14    0.00e+00    1.38e-14    0.00e+00    0.00e+00

Name:        m:mn5:n     m:mn4:n     m:mn3:n     m:mn2:n     m:mn1:n
Model:      mn5:n_1u    mn4:n_1u    mn3:n_1u    mn2:n_1u    mn1:n_1u
Id:          6.21e-12    4.34e-20    2.49e-20    2.49e-20    1.12e-11
Vgs:         5.00e+00    0.00e+00   -9.00e-10    1.45e-09   -1.39e-09
Vds:         1.39e-09    9.00e-10    4.90e-10    4.90e-10    5.00e+00
Vbs:         0.00e+00    0.00e+00   -9.00e-10   -9.00e-10   -1.39e-09
Vth:         8.22e-01    8.22e-01    8.22e-01    8.22e-01    8.22e-01
Vdsat:       1.35e+00    4.82e-02    4.82e-02    4.82e-02    4.82e-02
Gm:          1.03e-12    7.25e-19    3.95e-19    3.95e-19    2.23e-11
Gds:         4.46e-03    4.58e-11    4.58e-11    4.58e-11    5.68e-14
Gmb:         3.83e-13    2.46e-19    1.34e-19    1.34e-19    7.19e-12
Cbd:         0.00e+00    0.00e+00    0.00e+00    0.00e+00    0.00e+00
Cbs:         0.00e+00    0.00e+00    0.00e+00    0.00e+00    0.00e+00
Cgsov:       2.00e-15    2.00e-15    2.00e-15    2.00e-15    2.00e-15
Cgdov:       2.00e-15    2.00e-15    2.00e-15    2.00e-15    2.00e-15
Cgbov:       8.00e-17    8.00e-17    8.00e-17    8.00e-17    8.00e-17
Cgs:         6.91e-15    0.00e+00    0.00e+00    0.00e+00    0.00e+00
Cgd:         6.91e-15    0.00e+00    0.00e+00    0.00e+00    0.00e+00
Cgb:         0.00e+00    1.38e-14    1.38e-14    1.38e-14    1.38e-14

Name:        m:mp5:p     m:mp4:p     m:mp3:p     m:mp2:p     m:mp1:p
Model:      mp5:p_1u    mp4:p_1u    mp3:p_1u    mp2:p_1u    mp1:p_1u
Id:         -1.72e-19   -3.92e-18   -3.92e-18    0.00e+00   -3.79e-11
Vgs:         8.88e-16   -5.00e+00   -5.00e+00   -5.00e+00   -5.00e+00
Vds:        -8.60e-09   -8.88e-16   -8.88e-16    0.00e+00   -8.60e-09
Vbs:         8.88e-16    0.00e+00    0.00e+00    0.00e+00    0.00e+00
Vth:        -8.92e-01   -8.92e-01   -8.92e-01   -8.92e-01   -8.92e-01
Vdsat:      -4.93e-02   -1.61e+00   -1.61e+00   -1.61e+00   -1.61e+00
Gm:          2.62e-18    6.64e-19    6.64e-19    0.00e+00    6.43e-12
Gds:         1.77e-11    4.41e-03    4.41e-03    4.41e-03    4.41e-03
Gmb:         9.94e-19    2.64e-19    2.64e-19    0.00e+00    2.55e-12
Cbd:         0.00e+00    0.00e+00    0.00e+00    0.00e+00    0.00e+00
Cbs:         0.00e+00    0.00e+00    0.00e+00    0.00e+00    0.00e+00
Cgsov:       6.00e-15    6.00e-15    6.00e-15    6.00e-15    6.00e-15
Cgdov:       6.00e-15    6.00e-15    6.00e-15    6.00e-15    6.00e-15
Cgbov:       8.00e-17    8.00e-17    8.00e-17    8.00e-17    8.00e-17
Cgs:         2.07e-14    2.07e-14    2.07e-14    2.07e-14    2.07e-14
Cgd:         2.07e-14    2.07e-14    2.07e-14    2.07e-14    2.07e-14
Cgb:         0.00e+00    0.00e+00    0.00e+00    0.00e+00    0.00e+00



Date: Fri Jan 06 19:34:56 2023
Total elapsed time: 0.080 seconds.

tnom = 27
temp = 27
method = trap
totiter = 29
traniter = 0
tranpoints = 0
accept = 0
rejected = 0
matrix size = 30
fillins = 4
solver = Normal

