Circuit: * C:\Users\ammit\Desktop\Pen\ISEL\ISEL\2223\LEIC\s1\E\Trab2\T2_Eletronica\VGS_VDS.asc

Direct Newton iteration for .op point succeeded.
Semiconductor Device Operating Points:
                        --- MOSFET Transistors ---
Name:       m:mpen2:p   m:mnen2:n   m:mpen1:p   m:mnen1:n   m:mn11:p
Model:     mpen2:p_1u  mnen2:n_1u  mpen1:p_1u  mnen1:n_1u   mn11:p_1u
Id:         -1.05e-11    1.05e-11   -1.05e-11    1.05e-11    5.01e-12
Vgs:         0.00e+00    5.00e+00    0.00e+00    5.00e+00   -5.00e+00
Vds:        -5.00e+00    2.35e-09   -5.00e+00    2.35e-09    1.14e-09
Vbs:         0.00e+00    0.00e+00    0.00e+00    0.00e+00    1.93e-08
Vth:        -8.92e-01    8.22e-01   -8.92e-01    8.22e-01   -8.92e-01
Vdsat:      -4.93e-02    1.35e+00   -4.93e-02    1.35e+00   -1.61e+00
Gm:          8.71e-12    1.74e-12    8.71e-12    1.74e-12    8.49e-13
Gds:         1.69e-14    4.46e-03    1.69e-14    4.46e-03    4.41e-03
Gmb:         3.07e-12    6.47e-13    3.07e-12    6.47e-13    3.37e-13
Cbd:         0.00e+00    0.00e+00    0.00e+00    0.00e+00    0.00e+00
Cbs:         0.00e+00    0.00e+00    0.00e+00    0.00e+00    0.00e+00
Cgsov:       6.00e-15    2.00e-15    6.00e-15    2.00e-15    6.00e-15
Cgdov:       6.00e-15    2.00e-15    6.00e-15    2.00e-15    6.00e-15
Cgbov:       8.00e-17    8.00e-17    8.00e-17    8.00e-17    8.00e-17
Cgs:         2.76e-14    6.91e-15    2.76e-14    6.91e-15    2.07e-14
Cgd:         0.00e+00    6.91e-15    0.00e+00    6.91e-15    2.07e-14
Cgb:         0.00e+00    0.00e+00    0.00e+00    0.00e+00    0.00e+00

Name:       m:mp11:n    m:mn10:p    m:mp10:n     m:mpa:p     m:mna:n
Model:      mp11:n_1u   mn10:p_1u   mp10:n_1u   mpa:p_1u    mna:n_1u
Id:          5.01e-12    5.01e-12    5.01e-12   -1.12e-11    1.12e-11
Vgs:         1.93e-08   -5.00e+00    5.95e-09   -5.00e+00    0.00e+00
Vds:         1.14e-09    1.14e-09    1.14e-09   -2.54e-09    5.00e+00
Vbs:        -5.00e+00    5.95e-09   -5.00e+00    0.00e+00    0.00e+00
Vth:         1.45e+00   -8.92e-01    1.45e+00   -8.92e-01    8.22e-01
Vdsat:       4.80e-02   -1.61e+00    4.80e-02   -1.61e+00    4.82e-02
Gm:          1.38e-24    8.49e-13    1.38e-24    1.90e-12    2.23e-11
Gds:         6.32e-17    4.41e-03    6.32e-17    4.41e-03    5.68e-14
Gmb:         1.21e-25    3.37e-13    1.21e-25    7.55e-13    7.19e-12
Cbd:         0.00e+00    0.00e+00    0.00e+00    0.00e+00    0.00e+00
Cbs:         0.00e+00    0.00e+00    0.00e+00    0.00e+00    0.00e+00
Cgsov:       2.00e-15    6.00e-15    2.00e-15    6.00e-15    2.00e-15
Cgdov:       2.00e-15    6.00e-15    2.00e-15    6.00e-15    2.00e-15
Cgbov:       8.00e-17    8.00e-17    8.00e-17    8.00e-17    8.00e-17
Cgs:         0.00e+00    2.07e-14    0.00e+00    2.07e-14    0.00e+00
Cgd:         0.00e+00    2.07e-14    0.00e+00    2.07e-14    0.00e+00
Cgb:         1.38e-14    0.00e+00    1.38e-14    0.00e+00    1.38e-14

Name:        m:mpb:p     m:mnb:n     m:mn9:n     m:mn8:n     m:mn7:n
Model:      mpb:p_1u    mnb:n_1u    mn9:n_1u    mn8:n_1u    mn7:n_1u
Id:         -1.05e-11    1.05e-11   -5.42e-12   -9.67e-12    6.21e-12
Vgs:         0.00e+00    5.00e+00   -4.23e+00    1.57e-08    5.00e+00
Vds:        -5.00e+00    2.35e-09   -4.23e+00   -7.66e-01    1.39e-09
Vbs:         0.00e+00    0.00e+00   -4.23e+00   -5.00e+00    0.00e+00
Vth:        -8.92e-01    8.22e-01    8.22e-01    1.39e+00    8.22e-01
Vdsat:      -4.93e-02    1.35e+00    4.82e-02    4.80e-02    1.35e+00
Gm:          8.71e-12    1.74e-12    2.19e-11    2.55e-10    1.03e-12
Gds:         1.69e-14    4.46e-03    5.71e-14    7.36e-13    4.46e-03
Gmb:         3.07e-12    6.47e-13    7.09e-12    2.31e-11    3.83e-13
Cbd:         0.00e+00    0.00e+00    0.00e+00    0.00e+00    0.00e+00
Cbs:         0.00e+00    0.00e+00    0.00e+00    0.00e+00    0.00e+00
Cgsov:       6.00e-15    2.00e-15    2.00e-15    2.00e-15    2.00e-15
Cgdov:       6.00e-15    2.00e-15    2.00e-15    2.00e-15    2.00e-15
Cgbov:       8.00e-17    8.00e-17    8.00e-17    8.00e-17    8.00e-17
Cgs:         2.76e-14    6.91e-15    0.00e+00    0.00e+00    6.91e-15
Cgd:         0.00e+00    6.91e-15    0.00e+00    0.00e+00    6.91e-15
Cgb:         0.00e+00    0.00e+00    1.38e-14    1.23e-14    0.00e+00

Name:        m:mn6:n     m:mp9:p     m:mp8:p     m:mp7:p     m:mp6:p
Model:      mn6:n_1u    mp9:p_1u    mp8:p_1u    mp7:p_1u    mp6:p_1u
Id:          1.12e-11   -4.02e-11    5.17e-17   -4.78e-17   -4.02e-11
Vgs:        -1.39e-09   -5.00e+00    1.82e-08   -2.56e-06   -5.00e+00
Vds:         5.00e+00   -9.10e-09    2.58e-06   -2.56e-06   -9.10e-09
Vbs:        -1.39e-09    9.10e-09    1.82e-08   -2.56e-06    0.00e+00
Vth:         8.22e-01   -8.92e-01   -8.92e-01   -8.92e-01   -8.92e-01
Vdsat:       4.82e-02   -1.61e+00   -4.93e-02   -4.93e-02   -1.61e+00
Gm:          2.23e-11    6.80e-12    7.86e-16    7.80e-16    6.80e-12
Gds:         5.68e-14    4.41e-03    1.77e-11    1.77e-11    4.41e-03
Gmb:         7.19e-12    2.70e-12    2.98e-16    2.96e-16    2.70e-12
Cbd:         0.00e+00    0.00e+00    0.00e+00    0.00e+00    0.00e+00
Cbs:         0.00e+00    0.00e+00    0.00e+00    0.00e+00    0.00e+00
Cgsov:       2.00e-15    6.00e-15    6.00e-15    6.00e-15    6.00e-15
Cgdov:       2.00e-15    6.00e-15    6.00e-15    6.00e-15    6.00e-15
Cgbov:       8.00e-17    8.00e-17    8.00e-17    8.00e-17    8.00e-17
Cgs:         0.00e+00    2.07e-14    2.07e-14    2.07e-14    2.07e-14
Cgd:         0.00e+00    2.07e-14    2.07e-14    2.07e-14    2.07e-14
Cgb:         1.38e-14    0.00e+00    0.00e+00    0.00e+00    0.00e+00

Name:        m:mn5:n     m:mn4:n     m:mn3:n     m:mn2:n     m:mn1:n
Model:      mn5:n_1u    mn4:n_1u    mn3:n_1u    mn2:n_1u    mn1:n_1u
Id:          6.21e-12    4.34e-20    2.49e-20    2.49e-20    1.12e-11
Vgs:         5.00e+00    0.00e+00   -9.00e-10    1.45e-09   -1.39e-09
Vds:         1.39e-09    9.00e-10    4.90e-10    4.90e-10    5.00e+00
Vbs:         0.00e+00    0.00e+00   -9.00e-10   -9.00e-10   -1.39e-09
Vth:         8.22e-01    8.22e-01    8.22e-01    8.22e-01    8.22e-01
Vdsat:       1.35e+00    4.82e-02    4.82e-02    4.82e-02    4.82e-02
Gm:          1.03e-12    7.25e-19    3.95e-19    3.95e-19    2.23e-11
Gds:         4.46e-03    4.58e-11    4.58e-11    4.58e-11    5.68e-14
Gmb:         3.83e-13    2.46e-19    1.34e-19    1.34e-19    7.19e-12
Cbd:         0.00e+00    0.00e+00    0.00e+00    0.00e+00    0.00e+00
Cbs:         0.00e+00    0.00e+00    0.00e+00    0.00e+00    0.00e+00
Cgsov:       2.00e-15    2.00e-15    2.00e-15    2.00e-15    2.00e-15
Cgdov:       2.00e-15    2.00e-15    2.00e-15    2.00e-15    2.00e-15
Cgbov:       8.00e-17    8.00e-17    8.00e-17    8.00e-17    8.00e-17
Cgs:         6.91e-15    0.00e+00    0.00e+00    0.00e+00    0.00e+00
Cgd:         6.91e-15    0.00e+00    0.00e+00    0.00e+00    0.00e+00
Cgb:         0.00e+00    1.38e-14    1.38e-14    1.38e-14    1.38e-14

Name:        m:mp5:p     m:mp4:p     m:mp3:p     m:mp2:p     m:mp1:p
Model:      mp5:p_1u    mp4:p_1u    mp3:p_1u    mp2:p_1u    mp1:p_1u
Id:         -9.65e-20    7.84e-18    2.46e-27    7.84e-18   -2.12e-11
Vgs:        -1.78e-15   -5.00e+00   -5.00e+00   -5.00e+00   -5.00e+00
Vds:        -4.81e-09    1.78e-15    0.00e+00    1.78e-15   -4.81e-09
Vbs:        -1.78e-15    0.00e+00   -1.78e-15    0.00e+00    0.00e+00
Vth:        -8.92e-01   -8.92e-01   -8.92e-01   -8.92e-01   -8.92e-01
Vdsat:      -4.93e-02   -1.61e+00   -1.61e+00   -1.61e+00   -1.61e+00
Gm:          1.47e-18    1.33e-18    0.00e+00    1.33e-18    3.60e-12
Gds:         1.77e-11    4.41e-03    4.41e-03    4.41e-03    4.41e-03
Gmb:         5.57e-19    5.27e-19    0.00e+00    5.27e-19    1.43e-12
Cbd:         0.00e+00    0.00e+00    0.00e+00    0.00e+00    0.00e+00
Cbs:         0.00e+00    0.00e+00    0.00e+00    0.00e+00    0.00e+00
Cgsov:       6.00e-15    6.00e-15    6.00e-15    6.00e-15    6.00e-15
Cgdov:       6.00e-15    6.00e-15    6.00e-15    6.00e-15    6.00e-15
Cgbov:       8.00e-17    8.00e-17    8.00e-17    8.00e-17    8.00e-17
Cgs:         2.07e-14    2.07e-14    2.07e-14    2.07e-14    2.07e-14
Cgd:         2.07e-14    2.07e-14    2.07e-14    2.07e-14    2.07e-14
Cgb:         0.00e+00    0.00e+00    0.00e+00    0.00e+00    0.00e+00



Date: Thu Dec 29 17:49:15 2022
Total elapsed time: 0.076 seconds.

tnom = 27
temp = 27
method = trap
totiter = 40
traniter = 0
tranpoints = 0
accept = 0
rejected = 0
matrix size = 32
fillins = 4
solver = Normal

